
T0410 000:282 SEGGER J-Link V5.02f Log File (0000ms, 0260ms total)
T0410 000:282 DLL Compiled: Oct  2 2015 20:51:34 (0000ms, 0260ms total)
T0410 000:282 Logging started @ 2016-03-02 17:17 (0000ms, 0260ms total)
T0410 000:282 JLINK_SetWarnOutHandler(...) (0000ms, 0260ms total)
T0410 000:282 JLINK_OpenEx(...)
Firmware: J-Link ARM V8 compiled Jan 31 2018 18:34:52
Hardware: V8.00
S/N: 20080643
Feature(s): RDI,FlashDL,FlashBP,JFlash,GDBFull  returns O.K. (0262ms, 0522ms total)
T0410 000:544 JLINK_SetErrorOutHandler(...) (0000ms, 0522ms total)
T0410 000:544 JLINK_ExecCommand("ProjectFile = "E:\drivers\舵机及按键改【STM32】\Project\RVMDK（uv4）\JLinkSettings.ini"", ...)  returns 0x00 (0000ms, 0522ms total)
T0410 000:549 JLINK_ExecCommand("Device = STM32F103ZE", ...)Device "STM32F103ZE" selected.  returns 0x00 (0006ms, 0528ms total)
T0410 000:555 JLINK_ExecCommand("DisableConnectionTimeout", ...)  returns 0x01 (0000ms, 0528ms total)
T0410 000:555 JLINK_GetHardwareVersion()  returns 0x13880 (0000ms, 0528ms total)
T0410 000:555 JLINK_GetDLLVersion()  returns 50206 (0000ms, 0528ms total)
T0410 000:555 JLINK_GetFirmwareString(...) (0000ms, 0528ms total)
T0410 000:560 JLINK_GetDLLVersion()  returns 50206 (0000ms, 0528ms total)
T0410 000:560 JLINK_GetCompileDateTime() (0000ms, 0528ms total)
T0410 000:562 JLINK_GetFirmwareString(...) (0000ms, 0528ms total)
T0410 000:563 JLINK_GetHardwareVersion()  returns 0x13880 (0000ms, 0528ms total)
T0410 000:568 JLINK_TIF_Select(JLINKARM_TIF_JTAG)  returns 0x00 (0000ms, 0528ms total)
T0410 000:568 JLINK_SetSpeed(5000) (0000ms, 0528ms total)
T0410 000:568 JLINK_GetIdData(...) >0x2F8 JTAG>TotalIRLen = 9, IRPrint = 0x0011 >0x30 JTAG> >0x210 JTAG> >0x40 JTAG> >0x40 JTAG> >0x40 JTAG> >0x30 JTAG> >0x40 JTAG> >0x40 JTAG> >0x40 JTAG> >0x40 JTAG> >0x40 JTAG> >0x40 JTAG> >0x40 JTAG> >0x40 JTAG> >0x40 JTAG> >0x40 JTAG> >0x40 JTAG> >0x40 JTAG> >0x40 JTAG> >0x40 JTAG> >0x2F8 JTAG>TotalIRLen = 9, IRPrint = 0x0011 >0x30 JTAG> >0x210 JTAG> >0x70 JTAG> >0x40 JTAG> >0x40 JTAG> >0x40 JTAG> >0x50 JTAG> >0x80 JTAG> >0x40 JTAG> >0x30 JTAG> >0x40 JTAG>
 >0x40 JTAG> >0x30 JTAG> >0x40 JTAG> >0x50 JTAG>Found Cortex-M3 r1p1, Little endian. -- CPU_ReadMem(4 bytes @ 0xE000EDF0) -- CPU_ReadMem(4 bytes @ 0xE0002000)FPUnit: 6 code (BP) slots and 2 literal slots -- CPU_ReadMem(4 bytes @ 0xE000EDFC) -- CPU_ReadMem(4 bytes @ 0xE0001000) -- CPU_WriteMem(4 bytes @ 0xE0001000) -- CPU_ReadMem(4 bytes @ 0xE000ED88) -- CPU_WriteMem(4 bytes @ 0xE000ED88) -- CPU_ReadMem(4 bytes @ 0xE000ED88) -- CPU_WriteMem(4 bytes @ 0xE000ED88)CoreSight components:ROMTbl 0 @ E00FF000
 -- CPU_ReadMem(16 bytes @ 0xE00FF000) -- CPU_ReadMem(16 bytes @ 0xE000EFF0) -- CPU_ReadMem(16 bytes @ 0xE000EFE0)ROMTbl 0 [0]: FFF0F000, CID: B105E00D, PID: 001BB000 SCS -- CPU_ReadMem(16 bytes @ 0xE0001FF0) -- CPU_ReadMem(16 bytes @ 0xE0001FE0)ROMTbl 0 [1]: FFF02000, CID: B105E00D, PID: 001BB002 DWT -- CPU_ReadMem(16 bytes @ 0xE0002FF0) -- CPU_ReadMem(16 bytes @ 0xE0002FE0)ROMTbl 0 [2]: FFF03000, CID: B105E00D, PID: 000BB003 FPB -- CPU_ReadMem(16 bytes @ 0xE0000FF0)
 -- CPU_ReadMem(16 bytes @ 0xE0000FE0)ROMTbl 0 [3]: FFF01000, CID: B105E00D, PID: 001BB001 ITM -- CPU_ReadMem(16 bytes @ 0xE00FF010) -- CPU_ReadMem(16 bytes @ 0xE0040FF0) -- CPU_ReadMem(16 bytes @ 0xE0040FE0)ROMTbl 0 [4]: FFF41000, CID: B105900D, PID: 001BB923 TPIU-Lite ScanLen=9 NumDevices=2 aId[0]=0x3BA00477 aIrRead[0]=0 aScanLen[0]=0 aScanRead[0]=0 (0036ms, 0564ms total)
T0410 000:604 JLINK_JTAG_GetDeviceID(DeviceIndex = 0)  returns 0x3BA00477 (0000ms, 0564ms total)
T0410 000:604 JLINK_JTAG_GetDeviceInfo(DeviceIndex = 0)  returns 0x00 (0000ms, 0564ms total)
T0410 000:604 JLINK_JTAG_GetDeviceID(DeviceIndex = 1)  returns 0x16410041 (0000ms, 0564ms total)
T0410 000:604 JLINK_JTAG_GetDeviceInfo(DeviceIndex = 1)  returns 0x00 (0000ms, 0564ms total)
T0410 000:604 JLINK_GetDLLVersion()  returns 50206 (0000ms, 0564ms total)
T0410 000:604 JLINK_CORE_GetFound()  returns 0x30000FF (0000ms, 0564ms total)
T0410 000:604 JLINK_GetDebugInfo(0x100) -- Value=0xE00FF003  returns 0x00 (0001ms, 0565ms total)
T0410 000:608 JLINK_GetDebugInfo(0x100) -- Value=0xE00FF003  returns 0x00 (0000ms, 0565ms total)
T0410 000:608 JLINK_GetDebugInfo(0x101) -- Value=0x00000000  returns 0x00 (0000ms, 0565ms total)
T0410 000:608 JLINK_ReadMem (0xE0041FF0, 0x0010 Bytes, ...) -- CPU is running -- CPU_ReadMem(16 bytes @ 0xE0041FF0) - Data: 00 00 00 00 00 00 00 00 00 00 00 00 00 00 00 00  returns 0x00 (0000ms, 0565ms total)
T0410 000:608 JLINK_GetDebugInfo(0x102) -- Value=0x00000000  returns 0x00 (0000ms, 0565ms total)
T0410 000:608 JLINK_GetDebugInfo(0x103) -- Value=0xE0040000  returns 0x00 (0000ms, 0565ms total)
T0410 000:608 JLINK_GetDebugInfo(0x104) -- Value=0xE0000000  returns 0x00 (0000ms, 0565ms total)
T0410 000:608 JLINK_GetDebugInfo(0x105) -- Value=0xE0001000  returns 0x00 (0000ms, 0565ms total)
T0410 000:608 JLINK_GetDebugInfo(0x106) -- Value=0xE0002000  returns 0x00 (0000ms, 0565ms total)
T0410 000:608 JLINK_GetDebugInfo(0x107) -- Value=0xE000E000  returns 0x00 (0000ms, 0565ms total)
T0410 000:608 JLINK_GetDebugInfo(0x10C) -- Value=0xE000EDF0  returns 0x00 (0000ms, 0565ms total)
T0410 000:608 JLINK_ReadMemU32(0xE000ED00, 0x0001 Items, ...) -- CPU is running -- CPU_ReadMem(4 bytes @ 0xE000ED00) - Data: 31 C2 1F 41  returns 0x01 (0001ms, 0566ms total)
T0410 000:609 JLINK_SetResetType(JLINKARM_RESET_TYPE_NORMAL)  returns JLINKARM_RESET_TYPE_NORMAL (0000ms, 0566ms total)
T0410 000:609 JLINK_Reset() -- CPU is running -- CPU_WriteMem(4 bytes @ 0xE000EDF0) -- CPU is running -- CPU_WriteMem(4 bytes @ 0xE000EDFC) -- CPU is running -- CPU_WriteMem(4 bytes @ 0xE000ED0C) -- CPU is running -- CPU_ReadMem(4 bytes @ 0xE000EDF0) -- CPU is running -- CPU_ReadMem(4 bytes @ 0xE000EDF0) -- CPU is running -- CPU_WriteMem(4 bytes @ 0xE000EDF0) -- CPU is running -- CPU_WriteMem(4 bytes @ 0xE000EDFC) -- CPU is running -- CPU_ReadMem(4 bytes @ 0xE000EDF0) >0x80 JTAG> >0x40 JTAG> >0x30 JTAG>
 >0x40 JTAG> >0x50 JTAG> >0x40 JTAG> -- CPU_WriteMem(4 bytes @ 0xE000EDFC) -- CPU_WriteMem(4 bytes @ 0xE0001028) -- CPU_WriteMem(4 bytes @ 0xE0001038) -- CPU_WriteMem(4 bytes @ 0xE0001048) -- CPU_WriteMem(4 bytes @ 0xE0001058) -- CPU_WriteMem(4 bytes @ 0xE0002000) -- CPU_ReadMem(4 bytes @ 0xE000EDFC) -- CPU_ReadMem(4 bytes @ 0xE0001000) (0023ms, 0589ms total)
T0410 000:632 JLINK_Halt()  returns 0x00 (0000ms, 0589ms total)
T0410 000:632 JLINK_IsHalted()  returns TRUE (0000ms, 0589ms total)
T0410 000:632 JLINK_ReadMemU32(0xE000EDF0, 0x0001 Items, ...) -- CPU_ReadMem(4 bytes @ 0xE000EDF0) - Data: 03 00 03 00  returns 0x01 (0001ms, 0590ms total)
T0410 000:633 JLINK_WriteU32(0xE000EDF0, 0xA05F0003) -- CPU_WriteMem(4 bytes @ 0xE000EDF0)  returns 0x00 (0001ms, 0591ms total)
T0410 000:634 JLINK_WriteU32(0xE000EDFC, 0x01000000) -- CPU_WriteMem(4 bytes @ 0xE000EDFC)  returns 0x00 (0000ms, 0591ms total)
T0410 000:639 JLINK_GetHWStatus(...)  returns 0x00 (0001ms, 0592ms total)
T0410 000:643 JLINK_GetNumBPUnits(Type = 0xFFFFFF00)  returns 0x06 (0000ms, 0592ms total)
T0410 000:643 JLINK_GetNumBPUnits(Type = 0xF0)  returns 0x2000 (0000ms, 0592ms total)
T0410 000:643 JLINK_GetNumWPUnits()  returns 0x04 (0000ms, 0592ms total)
T0410 000:646 JLINK_GetSpeed()  returns 0x12C0 (0000ms, 0592ms total)
T0410 000:650 JLINK_ReadMemU32(0xE000E004, 0x0001 Items, ...) -- CPU_ReadMem(4 bytes @ 0xE000E004) - Data: 01 00 00 00  returns 0x01 (0000ms, 0592ms total)
T0410 000:650 JLINK_ReadMemU32(0xE000E004, 0x0001 Items, ...) -- CPU_ReadMem(4 bytes @ 0xE000E004) - Data: 01 00 00 00  returns 0x01 (0001ms, 0593ms total)
T0410 000:651 JLINK_WriteMem(0xE0001000, 0x001C Bytes, ...) - Data: 01 00 00 00 00 00 00 00 00 00 00 00 00 00 00 00 ... -- CPU_WriteMem(28 bytes @ 0xE0001000)  returns 0x1C (0000ms, 0593ms total)
T0410 000:651 JLINK_ReadMem (0xE0001000, 0x001C Bytes, ...) -- CPU_ReadMem(28 bytes @ 0xE0001000) - Data: 01 00 00 40 00 00 00 00 00 00 00 00 00 00 00 00 ...  returns 0x00 (0001ms, 0594ms total)
T0410 000:652 JLINK_Halt()  returns 0x00 (0000ms, 0594ms total)
T0410 000:652 JLINK_IsHalted()  returns TRUE (0000ms, 0594ms total)
T0410 000:653 JLINK_WriteMem(0x20000000, 0x0164 Bytes, ...) - Data: 00 BE 0A E0 0D 78 2D 06 68 40 08 24 40 00 00 D3 ... -- CPU_WriteMem(356 bytes @ 0x20000000)  returns 0x164 (0004ms, 0598ms total)
T0410 000:657 JLINK_WriteReg(R0, 0x08000000)  returns 0x00 (0000ms, 0598ms total)
T0410 000:657 JLINK_WriteReg(R1, 0x007A1200)  returns 0x00 (0000ms, 0598ms total)
T0410 000:657 JLINK_WriteReg(R2, 0x00000001)  returns 0x00 (0000ms, 0598ms total)
T0410 000:657 JLINK_WriteReg(R3, 0x00000000)  returns 0x00 (0000ms, 0598ms total)
T0410 000:657 JLINK_WriteReg(R4, 0x00000000)  returns 0x00 (0000ms, 0598ms total)
T0410 000:657 JLINK_WriteReg(R5, 0x00000000)  returns 0x00 (0000ms, 0598ms total)
T0410 000:657 JLINK_WriteReg(R6, 0x00000000)  returns 0x00 (0000ms, 0598ms total)
T0410 000:657 JLINK_WriteReg(R7, 0x00000000)  returns 0x00 (0000ms, 0598ms total)
T0410 000:657 JLINK_WriteReg(R8, 0x00000000)  returns 0x00 (0000ms, 0598ms total)
T0410 000:657 JLINK_WriteReg(R9, 0x20000160)  returns 0x00 (0000ms, 0598ms total)
T0410 000:657 JLINK_WriteReg(R10, 0x00000000)  returns 0x00 (0000ms, 0598ms total)
T0410 000:657 JLINK_WriteReg(R11, 0x00000000)  returns 0x00 (0000ms, 0598ms total)
T0410 000:657 JLINK_WriteReg(R12, 0x00000000)  returns 0x00 (0000ms, 0598ms total)
T0410 000:657 JLINK_WriteReg(R13 (SP), 0x20000800)  returns 0x00 (0000ms, 0598ms total)
T0410 000:657 JLINK_WriteReg(R14, 0x20000001)  returns 0x00 (0000ms, 0598ms total)
T0410 000:657 JLINK_WriteReg(R15 (PC), 0x20000038)  returns 0x00 (0000ms, 0598ms total)
T0410 000:657 JLINK_WriteReg(XPSR, 0x01000000)  returns 0x00 (0000ms, 0598ms total)
T0410 000:657 JLINK_WriteReg(MSP, 0x20000800)  returns 0x00 (0000ms, 0598ms total)
T0410 000:657 JLINK_WriteReg(PSP, 0x20000800)  returns 0x00 (0000ms, 0598ms total)
T0410 000:657 JLINK_WriteReg(CFBP, 0x00000000)  returns 0x00 (0000ms, 0598ms total)
T0410 000:657 JLINK_SetBPEx(Addr = 0x20000000, Type = 0xFFFFFFF2) -- CPU_ReadMem(2 bytes @ 0x20000000)  returns 0x00000001 (0001ms, 0599ms total)
T0410 000:658 JLINK_Go() -- CPU_WriteMem(2 bytes @ 0x20000000) -- CPU_ReadMem(4 bytes @ 0xE0001000) -- CPU_WriteMem(4 bytes @ 0xE0002008) -- CPU_WriteMem(4 bytes @ 0xE000200C) -- CPU_WriteMem(4 bytes @ 0xE0002010) -- CPU_WriteMem(4 bytes @ 0xE0002014) -- CPU_WriteMem(4 bytes @ 0xE0002018) -- CPU_WriteMem(4 bytes @ 0xE000201C) -- CPU_WriteMem(4 bytes @ 0xE0001004) (0004ms, 0603ms total)
T0410 000:662 JLINK_IsHalted() -- CPU_ReadMem(2 bytes @ 0x20000000)  returns TRUE (0003ms, 0606ms total)
T0410 000:665 JLINK_ReadReg(R15 (PC))  returns 0x20000000 (0000ms, 0603ms total)
T0410 000:665 JLINK_ClrBPEx(BPHandle = 0x00000001)  returns 0x00 (0000ms, 0603ms total)
T0410 000:665 JLINK_ReadReg(R0)  returns 0x00000000 (0000ms, 0603ms total)
T0410 000:666 JLINK_WriteReg(R0, 0x08000000)  returns 0x00 (0000ms, 0603ms total)
T0410 000:666 JLINK_WriteReg(R1, 0x007A1200)  returns 0x00 (0000ms, 0603ms total)
T0410 000:666 JLINK_WriteReg(R2, 0x00000001)  returns 0x00 (0000ms, 0603ms total)
T0410 000:666 JLINK_WriteReg(R3, 0x00000000)  returns 0x00 (0000ms, 0603ms total)
T0410 000:666 JLINK_WriteReg(R4, 0x00000000)  returns 0x00 (0000ms, 0603ms total)
T0410 000:666 JLINK_WriteReg(R5, 0x00000000)  returns 0x00 (0000ms, 0603ms total)
T0410 000:666 JLINK_WriteReg(R6, 0x00000000)  returns 0x00 (0000ms, 0603ms total)
T0410 000:666 JLINK_WriteReg(R7, 0x00000000)  returns 0x00 (0000ms, 0603ms total)
T0410 000:666 JLINK_WriteReg(R8, 0x00000000)  returns 0x00 (0000ms, 0603ms total)
T0410 000:666 JLINK_WriteReg(R9, 0x20000160)  returns 0x00 (0000ms, 0603ms total)
T0410 000:666 JLINK_WriteReg(R10, 0x00000000)  returns 0x00 (0000ms, 0603ms total)
T0410 000:666 JLINK_WriteReg(R11, 0x00000000)  returns 0x00 (0000ms, 0603ms total)
T0410 000:666 JLINK_WriteReg(R12, 0x00000000)  returns 0x00 (0000ms, 0603ms total)
T0410 000:666 JLINK_WriteReg(R13 (SP), 0x20000800)  returns 0x00 (0000ms, 0603ms total)
T0410 000:666 JLINK_WriteReg(R14, 0x20000001)  returns 0x00 (0000ms, 0603ms total)
T0410 000:666 JLINK_WriteReg(R15 (PC), 0x2000007C)  returns 0x00 (0000ms, 0603ms total)
T0410 000:666 JLINK_WriteReg(XPSR, 0x01000000)  returns 0x00 (0000ms, 0603ms total)
T0410 000:666 JLINK_WriteReg(MSP, 0x20000800)  returns 0x00 (0000ms, 0603ms total)
T0410 000:666 JLINK_WriteReg(PSP, 0x20000800)  returns 0x00 (0000ms, 0603ms total)
T0410 000:666 JLINK_WriteReg(CFBP, 0x00000000)  returns 0x00 (0000ms, 0603ms total)
T0410 000:666 JLINK_SetBPEx(Addr = 0x20000000, Type = 0xFFFFFFF2)  returns 0x00000002 (0000ms, 0603ms total)
T0410 000:666 JLINK_Go() -- CPU_ReadMem(4 bytes @ 0xE0001000) (0002ms, 0605ms total)
T0410 000:668 JLINK_IsHalted()  returns FALSE (0000ms, 0605ms total)
T0410 000:707 JLINK_IsHalted() -- CPU_ReadMem(2 bytes @ 0x20000000)  returns TRUE (0003ms, 0608ms total)
T0410 000:710 JLINK_ReadReg(R15 (PC))  returns 0x20000000 (0000ms, 0605ms total)
T0410 000:710 JLINK_ClrBPEx(BPHandle = 0x00000002)  returns 0x00 (0000ms, 0605ms total)
T0410 000:710 JLINK_ReadReg(R0)  returns 0x00000000 (0000ms, 0605ms total)
T0410 000:760 JLINK_WriteReg(R0, 0x00000001)  returns 0x00 (0000ms, 0605ms total)
T0410 000:760 JLINK_WriteReg(R1, 0x007A1200)  returns 0x00 (0000ms, 0605ms total)
T0410 000:760 JLINK_WriteReg(R2, 0x00000001)  returns 0x00 (0001ms, 0606ms total)
T0410 000:761 JLINK_WriteReg(R3, 0x00000000)  returns 0x00 (0000ms, 0606ms total)
T0410 000:761 JLINK_WriteReg(R4, 0x00000000)  returns 0x00 (0000ms, 0606ms total)
T0410 000:761 JLINK_WriteReg(R5, 0x00000000)  returns 0x00 (0000ms, 0606ms total)
T0410 000:761 JLINK_WriteReg(R6, 0x00000000)  returns 0x00 (0000ms, 0606ms total)
T0410 000:761 JLINK_WriteReg(R7, 0x00000000)  returns 0x00 (0000ms, 0606ms total)
T0410 000:761 JLINK_WriteReg(R8, 0x00000000)  returns 0x00 (0000ms, 0606ms total)
T0410 000:761 JLINK_WriteReg(R9, 0x20000160)  returns 0x00 (0000ms, 0606ms total)
T0410 000:761 JLINK_WriteReg(R10, 0x00000000)  returns 0x00 (0000ms, 0606ms total)
T0410 000:761 JLINK_WriteReg(R11, 0x00000000)  returns 0x00 (0000ms, 0606ms total)
T0410 000:761 JLINK_WriteReg(R12, 0x00000000)  returns 0x00 (0000ms, 0606ms total)
T0410 000:761 JLINK_WriteReg(R13 (SP), 0x20000800)  returns 0x00 (0000ms, 0606ms total)
T0410 000:761 JLINK_WriteReg(R14, 0x20000001)  returns 0x00 (0000ms, 0606ms total)
T0410 000:761 JLINK_WriteReg(R15 (PC), 0x2000006A)  returns 0x00 (0000ms, 0606ms total)
T0410 000:761 JLINK_WriteReg(XPSR, 0x01000000)  returns 0x00 (0000ms, 0606ms total)
T0410 000:761 JLINK_WriteReg(MSP, 0x20000800)  returns 0x00 (0000ms, 0606ms total)
T0410 000:761 JLINK_WriteReg(PSP, 0x20000800)  returns 0x00 (0000ms, 0606ms total)
T0410 000:761 JLINK_WriteReg(CFBP, 0x00000000)  returns 0x00 (0000ms, 0606ms total)
T0410 000:761 JLINK_SetBPEx(Addr = 0x20000000, Type = 0xFFFFFFF2)  returns 0x00000003 (0000ms, 0606ms total)
T0410 000:761 JLINK_Go() -- CPU_ReadMem(4 bytes @ 0xE0001000) (0001ms, 0607ms total)
T0410 000:762 JLINK_IsHalted() -- CPU_ReadMem(2 bytes @ 0x20000000)  returns TRUE (0003ms, 0610ms total)
T0410 000:765 JLINK_ReadReg(R15 (PC))  returns 0x20000000 (0000ms, 0607ms total)
T0410 000:765 JLINK_ClrBPEx(BPHandle = 0x00000003)  returns 0x00 (0000ms, 0607ms total)
T0410 000:765 JLINK_ReadReg(R0)  returns 0x00000000 (0000ms, 0607ms total)
T0410 000:768 JLINK_WriteMem(0x20000000, 0x0164 Bytes, ...) - Data: 00 BE 0A E0 0D 78 2D 06 68 40 08 24 40 00 00 D3 ... -- CPU_WriteMem(356 bytes @ 0x20000000)  returns 0x164 (0003ms, 0610ms total)
T0410 000:771 JLINK_WriteReg(R0, 0x08000000)  returns 0x00 (0000ms, 0610ms total)
T0410 000:771 JLINK_WriteReg(R1, 0x007A1200)  returns 0x00 (0000ms, 0610ms total)
T0410 000:771 JLINK_WriteReg(R2, 0x00000002)  returns 0x00 (0000ms, 0610ms total)
T0410 000:771 JLINK_WriteReg(R3, 0x00000000)  returns 0x00 (0000ms, 0610ms total)
T0410 000:771 JLINK_WriteReg(R4, 0x00000000)  returns 0x00 (0000ms, 0610ms total)
T0410 000:771 JLINK_WriteReg(R5, 0x00000000)  returns 0x00 (0000ms, 0610ms total)
T0410 000:771 JLINK_WriteReg(R6, 0x00000000)  returns 0x00 (0000ms, 0610ms total)
T0410 000:771 JLINK_WriteReg(R7, 0x00000000)  returns 0x00 (0000ms, 0610ms total)
T0410 000:771 JLINK_WriteReg(R8, 0x00000000)  returns 0x00 (0000ms, 0610ms total)
T0410 000:771 JLINK_WriteReg(R9, 0x20000160)  returns 0x00 (0000ms, 0610ms total)
T0410 000:771 JLINK_WriteReg(R10, 0x00000000)  returns 0x00 (0000ms, 0610ms total)
T0410 000:771 JLINK_WriteReg(R11, 0x00000000)  returns 0x00 (0000ms, 0610ms total)
T0410 000:771 JLINK_WriteReg(R12, 0x00000000)  returns 0x00 (0000ms, 0610ms total)
T0410 000:771 JLINK_WriteReg(R13 (SP), 0x20000800)  returns 0x00 (0000ms, 0610ms total)
T0410 000:771 JLINK_WriteReg(R14, 0x20000001)  returns 0x00 (0000ms, 0610ms total)
T0410 000:771 JLINK_WriteReg(R15 (PC), 0x20000038)  returns 0x00 (0000ms, 0610ms total)
T0410 000:771 JLINK_WriteReg(XPSR, 0x01000000)  returns 0x00 (0000ms, 0610ms total)
T0410 000:771 JLINK_WriteReg(MSP, 0x20000800)  returns 0x00 (0000ms, 0610ms total)
T0410 000:771 JLINK_WriteReg(PSP, 0x20000800)  returns 0x00 (0000ms, 0610ms total)
T0410 000:771 JLINK_WriteReg(CFBP, 0x00000000)  returns 0x00 (0000ms, 0610ms total)
T0410 000:771 JLINK_SetBPEx(Addr = 0x20000000, Type = 0xFFFFFFF2) -- CPU_ReadMem(2 bytes @ 0x20000000)  returns 0x00000004 (0001ms, 0611ms total)
T0410 000:772 JLINK_Go() -- CPU_WriteMem(2 bytes @ 0x20000000) -- CPU_ReadMem(4 bytes @ 0xE0001000) (0002ms, 0613ms total)
T0410 000:774 JLINK_IsHalted() -- CPU_ReadMem(2 bytes @ 0x20000000)  returns TRUE (0003ms, 0616ms total)
T0410 000:777 JLINK_ReadReg(R15 (PC))  returns 0x20000000 (0000ms, 0613ms total)
T0410 000:777 JLINK_ClrBPEx(BPHandle = 0x00000004)  returns 0x00 (0000ms, 0613ms total)
T0410 000:777 JLINK_ReadReg(R0)  returns 0x00000000 (0000ms, 0613ms total)
T0410 000:778 JLINK_WriteMem(0x20000164, 0x0400 Bytes, ...) - Data: 30 04 00 20 45 01 00 08 95 18 00 08 97 18 00 08 ... -- CPU_WriteMem(1024 bytes @ 0x20000164)  returns 0x400 (0008ms, 0622ms total)
T0410 000:786 JLINK_WriteReg(R0, 0x08000000)  returns 0x00 (0000ms, 0622ms total)
T0410 000:786 JLINK_WriteReg(R1, 0x00000400)  returns 0x00 (0000ms, 0622ms total)
T0410 000:786 JLINK_WriteReg(R2, 0x20000164)  returns 0x00 (0000ms, 0622ms total)
T0410 000:786 JLINK_WriteReg(R3, 0x00000000)  returns 0x00 (0000ms, 0622ms total)
T0410 000:786 JLINK_WriteReg(R4, 0x00000000)  returns 0x00 (0000ms, 0622ms total)
T0410 000:786 JLINK_WriteReg(R5, 0x00000000)  returns 0x00 (0000ms, 0622ms total)
T0410 000:786 JLINK_WriteReg(R6, 0x00000000)  returns 0x00 (0000ms, 0622ms total)
T0410 000:786 JLINK_WriteReg(R7, 0x00000000)  returns 0x00 (0000ms, 0622ms total)
T0410 000:786 JLINK_WriteReg(R8, 0x00000000)  returns 0x00 (0000ms, 0622ms total)
T0410 000:786 JLINK_WriteReg(R9, 0x20000160)  returns 0x00 (0000ms, 0622ms total)
T0410 000:786 JLINK_WriteReg(R10, 0x00000000)  returns 0x00 (0000ms, 0622ms total)
T0410 000:786 JLINK_WriteReg(R11, 0x00000000)  returns 0x00 (0000ms, 0622ms total)
T0410 000:786 JLINK_WriteReg(R12, 0x00000000)  returns 0x00 (0000ms, 0622ms total)
T0410 000:786 JLINK_WriteReg(R13 (SP), 0x20000800)  returns 0x00 (0000ms, 0622ms total)
T0410 000:786 JLINK_WriteReg(R14, 0x20000001)  returns 0x00 (0000ms, 0622ms total)
T0410 000:786 JLINK_WriteReg(R15 (PC), 0x200000F4)  returns 0x00 (0000ms, 0622ms total)
T0410 000:786 JLINK_WriteReg(XPSR, 0x01000000)  returns 0x00 (0000ms, 0622ms total)
T0410 000:786 JLINK_WriteReg(MSP, 0x20000800)  returns 0x00 (0000ms, 0622ms total)
T0410 000:786 JLINK_WriteReg(PSP, 0x20000800)  returns 0x00 (0000ms, 0622ms total)
T0410 000:786 JLINK_WriteReg(CFBP, 0x00000000)  returns 0x00 (0000ms, 0622ms total)
T0410 000:786 JLINK_SetBPEx(Addr = 0x20000000, Type = 0xFFFFFFF2)  returns 0x00000005 (0000ms, 0622ms total)
T0410 000:786 JLINK_Go() -- CPU_ReadMem(4 bytes @ 0xE0001000) (0001ms, 0623ms total)
T0410 000:787 JLINK_IsHalted()  returns FALSE (0001ms, 0624ms total)
T0410 000:801 JLINK_IsHalted()  returns FALSE (0000ms, 0623ms total)
T0410 000:803 JLINK_IsHalted()  returns FALSE (0000ms, 0623ms total)
T0410 000:805 JLINK_IsHalted()  returns FALSE (0000ms, 0623ms total)
T0410 000:807 JLINK_IsHalted()  returns FALSE (0000ms, 0623ms total)
T0410 000:811 JLINK_IsHalted()  returns FALSE (0000ms, 0623ms total)
T0410 000:813 JLINK_IsHalted()  returns FALSE (0000ms, 0623ms total)
T0410 000:815 JLINK_IsHalted()  returns FALSE (0000ms, 0623ms total)
T0410 000:817 JLINK_IsHalted()  returns FALSE (0000ms, 0623ms total)
T0410 000:819 JLINK_IsHalted() -- CPU_ReadMem(2 bytes @ 0x20000000)  returns TRUE (0003ms, 0626ms total)
T0410 000:822 JLINK_ReadReg(R15 (PC))  returns 0x20000000 (0000ms, 0623ms total)
T0410 000:822 JLINK_ClrBPEx(BPHandle = 0x00000005)  returns 0x00 (0000ms, 0623ms total)
T0410 000:822 JLINK_ReadReg(R0)  returns 0x00000000 (0000ms, 0623ms total)
T0410 000:822 JLINK_WriteMem(0x20000164, 0x0400 Bytes, ...) - Data: 01 20 00 F0 D7 FA 10 BD 2D E9 F0 41 02 46 00 25 ... -- CPU_WriteMem(1024 bytes @ 0x20000164)  returns 0x400 (0008ms, 0631ms total)
T0410 000:830 JLINK_WriteReg(R0, 0x08000400)  returns 0x00 (0000ms, 0631ms total)
T0410 000:830 JLINK_WriteReg(R1, 0x00000400)  returns 0x00 (0000ms, 0631ms total)
T0410 000:830 JLINK_WriteReg(R2, 0x20000164)  returns 0x00 (0000ms, 0631ms total)
T0410 000:830 JLINK_WriteReg(R3, 0x00000000)  returns 0x00 (0000ms, 0631ms total)
T0410 000:830 JLINK_WriteReg(R4, 0x00000000)  returns 0x00 (0000ms, 0631ms total)
T0410 000:830 JLINK_WriteReg(R5, 0x00000000)  returns 0x00 (0000ms, 0631ms total)
T0410 000:830 JLINK_WriteReg(R6, 0x00000000)  returns 0x00 (0000ms, 0631ms total)
T0410 000:830 JLINK_WriteReg(R7, 0x00000000)  returns 0x00 (0001ms, 0632ms total)
T0410 000:831 JLINK_WriteReg(R8, 0x00000000)  returns 0x00 (0000ms, 0632ms total)
T0410 000:831 JLINK_WriteReg(R9, 0x20000160)  returns 0x00 (0000ms, 0632ms total)
T0410 000:831 JLINK_WriteReg(R10, 0x00000000)  returns 0x00 (0000ms, 0632ms total)
T0410 000:831 JLINK_WriteReg(R11, 0x00000000)  returns 0x00 (0000ms, 0632ms total)
T0410 000:831 JLINK_WriteReg(R12, 0x00000000)  returns 0x00 (0000ms, 0632ms total)
T0410 000:831 JLINK_WriteReg(R13 (SP), 0x20000800)  returns 0x00 (0000ms, 0632ms total)
T0410 000:831 JLINK_WriteReg(R14, 0x20000001)  returns 0x00 (0000ms, 0632ms total)
T0410 000:831 JLINK_WriteReg(R15 (PC), 0x200000F4)  returns 0x00 (0000ms, 0632ms total)
T0410 000:831 JLINK_WriteReg(XPSR, 0x01000000)  returns 0x00 (0000ms, 0632ms total)
T0410 000:831 JLINK_WriteReg(MSP, 0x20000800)  returns 0x00 (0000ms, 0632ms total)
T0410 000:831 JLINK_WriteReg(PSP, 0x20000800)  returns 0x00 (0000ms, 0632ms total)
T0410 000:831 JLINK_WriteReg(CFBP, 0x00000000)  returns 0x00 (0000ms, 0632ms total)
T0410 000:831 JLINK_SetBPEx(Addr = 0x20000000, Type = 0xFFFFFFF2)  returns 0x00000006 (0000ms, 0632ms total)
T0410 000:831 JLINK_Go() -- CPU_ReadMem(4 bytes @ 0xE0001000) (0001ms, 0633ms total)
T0410 000:832 JLINK_IsHalted()  returns FALSE (0000ms, 0633ms total)
T0410 000:836 JLINK_IsHalted()  returns FALSE (0000ms, 0634ms total)
T0410 000:838 JLINK_IsHalted()  returns FALSE (0000ms, 0634ms total)
T0410 000:840 JLINK_IsHalted()  returns FALSE (0000ms, 0634ms total)
T0410 000:842 JLINK_IsHalted()  returns FALSE (0000ms, 0634ms total)
T0410 000:844 JLINK_IsHalted()  returns FALSE (0000ms, 0634ms total)
T0410 000:848 JLINK_IsHalted()  returns FALSE (0000ms, 0634ms total)
T0410 000:849 JLINK_IsHalted()  returns FALSE (0000ms, 0634ms total)
T0410 000:851 JLINK_IsHalted()  returns FALSE (0000ms, 0634ms total)
T0410 000:852 JLINK_IsHalted()  returns FALSE (0000ms, 0634ms total)
T0410 000:854 JLINK_IsHalted()  returns FALSE (0000ms, 0634ms total)
T0410 000:858 JLINK_IsHalted()  returns FALSE (0000ms, 0634ms total)
T0410 000:859 JLINK_IsHalted()  returns FALSE (0000ms, 0634ms total)
T0410 000:860 JLINK_IsHalted()  returns FALSE (0000ms, 0634ms total)
T0410 000:862 JLINK_IsHalted()  returns FALSE (0000ms, 0634ms total)
T0410 000:863 JLINK_IsHalted() -- CPU_ReadMem(2 bytes @ 0x20000000)  returns TRUE (0003ms, 0637ms total)
T0410 000:866 JLINK_ReadReg(R15 (PC))  returns 0x20000000 (0000ms, 0634ms total)
T0410 000:866 JLINK_ClrBPEx(BPHandle = 0x00000006)  returns 0x00 (0000ms, 0634ms total)
T0410 000:866 JLINK_ReadReg(R0)  returns 0x00000000 (0000ms, 0634ms total)
T0410 000:866 JLINK_WriteMem(0x20000164, 0x0400 Bytes, ...) - Data: 01 46 00 20 87 4A 50 68 20 F4 E0 60 08 43 50 60 ... -- CPU_WriteMem(1024 bytes @ 0x20000164)  returns 0x400 (0008ms, 0642ms total)
T0410 000:874 JLINK_WriteReg(R0, 0x08000800)  returns 0x00 (0000ms, 0642ms total)
T0410 000:874 JLINK_WriteReg(R1, 0x00000400)  returns 0x00 (0000ms, 0642ms total)
T0410 000:874 JLINK_WriteReg(R2, 0x20000164)  returns 0x00 (0000ms, 0642ms total)
T0410 000:874 JLINK_WriteReg(R3, 0x00000000)  returns 0x00 (0000ms, 0642ms total)
T0410 000:874 JLINK_WriteReg(R4, 0x00000000)  returns 0x00 (0000ms, 0642ms total)
T0410 000:874 JLINK_WriteReg(R5, 0x00000000)  returns 0x00 (0000ms, 0642ms total)
T0410 000:874 JLINK_WriteReg(R6, 0x00000000)  returns 0x00 (0000ms, 0642ms total)
T0410 000:874 JLINK_WriteReg(R7, 0x00000000)  returns 0x00 (0000ms, 0642ms total)
T0410 000:874 JLINK_WriteReg(R8, 0x00000000)  returns 0x00 (0000ms, 0642ms total)
T0410 000:874 JLINK_WriteReg(R9, 0x20000160)  returns 0x00 (0000ms, 0642ms total)
T0410 000:874 JLINK_WriteReg(R10, 0x00000000)  returns 0x00 (0000ms, 0642ms total)
T0410 000:874 JLINK_WriteReg(R11, 0x00000000)  returns 0x00 (0000ms, 0642ms total)
T0410 000:874 JLINK_WriteReg(R12, 0x00000000)  returns 0x00 (0000ms, 0642ms total)
T0410 000:874 JLINK_WriteReg(R13 (SP), 0x20000800)  returns 0x00 (0000ms, 0642ms total)
T0410 000:874 JLINK_WriteReg(R14, 0x20000001)  returns 0x00 (0000ms, 0642ms total)
T0410 000:874 JLINK_WriteReg(R15 (PC), 0x200000F4)  returns 0x00 (0000ms, 0642ms total)
T0410 000:874 JLINK_WriteReg(XPSR, 0x01000000)  returns 0x00 (0000ms, 0642ms total)
T0410 000:874 JLINK_WriteReg(MSP, 0x20000800)  returns 0x00 (0000ms, 0642ms total)
T0410 000:874 JLINK_WriteReg(PSP, 0x20000800)  returns 0x00 (0000ms, 0642ms total)
T0410 000:874 JLINK_WriteReg(CFBP, 0x00000000)  returns 0x00 (0000ms, 0642ms total)
T0410 000:874 JLINK_SetBPEx(Addr = 0x20000000, Type = 0xFFFFFFF2)  returns 0x00000007 (0000ms, 0642ms total)
T0410 000:874 JLINK_Go() -- CPU_ReadMem(4 bytes @ 0xE0001000) (0002ms, 0644ms total)
T0410 000:876 JLINK_IsHalted()  returns FALSE (0000ms, 0644ms total)
T0410 000:881 JLINK_IsHalted()  returns FALSE (0000ms, 0644ms total)
T0410 000:883 JLINK_IsHalted()  returns FALSE (0000ms, 0644ms total)
T0410 000:885 JLINK_IsHalted()  returns FALSE (0000ms, 0644ms total)
T0410 000:888 JLINK_IsHalted()  returns FALSE (0000ms, 0644ms total)
T0410 000:890 JLINK_IsHalted()  returns FALSE (0000ms, 0644ms total)
T0410 000:896 JLINK_IsHalted()  returns FALSE (0000ms, 0644ms total)
T0410 000:898 JLINK_IsHalted()  returns FALSE (0000ms, 0644ms total)
T0410 000:900 JLINK_IsHalted()  returns FALSE (0000ms, 0644ms total)
T0410 000:902 JLINK_IsHalted()  returns FALSE (0000ms, 0644ms total)
T0410 000:908 JLINK_IsHalted() -- CPU_ReadMem(2 bytes @ 0x20000000)  returns TRUE (0003ms, 0647ms total)
T0410 000:911 JLINK_ReadReg(R15 (PC))  returns 0x20000000 (0000ms, 0644ms total)
T0410 000:911 JLINK_ClrBPEx(BPHandle = 0x00000007)  returns 0x00 (0000ms, 0644ms total)
T0410 000:911 JLINK_ReadReg(R0)  returns 0x00000000 (0000ms, 0644ms total)
T0410 000:911 JLINK_WriteMem(0x20000164, 0x0400 Bytes, ...) - Data: B0 F1 80 4F 08 D0 91 4B 98 42 05 D0 90 4B 98 42 ... -- CPU_WriteMem(1024 bytes @ 0x20000164)  returns 0x400 (0009ms, 0653ms total)
T0410 000:920 JLINK_WriteReg(R0, 0x08000C00)  returns 0x00 (0000ms, 0653ms total)
T0410 000:920 JLINK_WriteReg(R1, 0x00000400)  returns 0x00 (0000ms, 0653ms total)
T0410 000:920 JLINK_WriteReg(R2, 0x20000164)  returns 0x00 (0000ms, 0653ms total)
T0410 000:920 JLINK_WriteReg(R3, 0x00000000)  returns 0x00 (0000ms, 0653ms total)
T0410 000:920 JLINK_WriteReg(R4, 0x00000000)  returns 0x00 (0000ms, 0653ms total)
T0410 000:920 JLINK_WriteReg(R5, 0x00000000)  returns 0x00 (0000ms, 0653ms total)
T0410 000:920 JLINK_WriteReg(R6, 0x00000000)  returns 0x00 (0000ms, 0653ms total)
T0410 000:920 JLINK_WriteReg(R7, 0x00000000)  returns 0x00 (0000ms, 0653ms total)
T0410 000:920 JLINK_WriteReg(R8, 0x00000000)  returns 0x00 (0000ms, 0653ms total)
T0410 000:920 JLINK_WriteReg(R9, 0x20000160)  returns 0x00 (0000ms, 0653ms total)
T0410 000:920 JLINK_WriteReg(R10, 0x00000000)  returns 0x00 (0000ms, 0653ms total)
T0410 000:920 JLINK_WriteReg(R11, 0x00000000)  returns 0x00 (0000ms, 0653ms total)
T0410 000:920 JLINK_WriteReg(R12, 0x00000000)  returns 0x00 (0000ms, 0653ms total)
T0410 000:920 JLINK_WriteReg(R13 (SP), 0x20000800)  returns 0x00 (0000ms, 0653ms total)
T0410 000:920 JLINK_WriteReg(R14, 0x20000001)  returns 0x00 (0000ms, 0653ms total)
T0410 000:920 JLINK_WriteReg(R15 (PC), 0x200000F4)  returns 0x00 (0000ms, 0653ms total)
T0410 000:920 JLINK_WriteReg(XPSR, 0x01000000)  returns 0x00 (0000ms, 0653ms total)
T0410 000:920 JLINK_WriteReg(MSP, 0x20000800)  returns 0x00 (0000ms, 0653ms total)
T0410 000:920 JLINK_WriteReg(PSP, 0x20000800)  returns 0x00 (0000ms, 0653ms total)
T0410 000:920 JLINK_WriteReg(CFBP, 0x00000000)  returns 0x00 (0000ms, 0653ms total)
T0410 000:920 JLINK_SetBPEx(Addr = 0x20000000, Type = 0xFFFFFFF2)  returns 0x00000008 (0000ms, 0653ms total)
T0410 000:920 JLINK_Go() -- CPU_ReadMem(4 bytes @ 0xE0001000) (0001ms, 0654ms total)
T0410 000:921 JLINK_IsHalted()  returns FALSE (0001ms, 0655ms total)
T0410 000:925 JLINK_IsHalted()  returns FALSE (0000ms, 0654ms total)
T0410 000:927 JLINK_IsHalted()  returns FALSE (0000ms, 0654ms total)
T0410 000:929 JLINK_IsHalted()  returns FALSE (0000ms, 0654ms total)
T0410 000:930 JLINK_IsHalted()  returns FALSE (0000ms, 0654ms total)
T0410 000:932 JLINK_IsHalted()  returns FALSE (0000ms, 0654ms total)
T0410 000:934 JLINK_IsHalted()  returns FALSE (0000ms, 0654ms total)
T0410 000:936 JLINK_IsHalted()  returns FALSE (0000ms, 0654ms total)
T0410 000:938 JLINK_IsHalted()  returns FALSE (0000ms, 0654ms total)
T0410 000:940 JLINK_IsHalted()  returns FALSE (0000ms, 0654ms total)
T0410 000:944 JLINK_IsHalted()  returns FALSE (0000ms, 0654ms total)
T0410 000:946 JLINK_IsHalted()  returns FALSE (0000ms, 0654ms total)
T0410 000:948 JLINK_IsHalted()  returns FALSE (0000ms, 0654ms total)
T0410 000:950 JLINK_IsHalted()  returns FALSE (0000ms, 0654ms total)
T0410 000:951 JLINK_IsHalted()  returns FALSE (0001ms, 0655ms total)
T0410 000:953 JLINK_IsHalted() -- CPU_ReadMem(2 bytes @ 0x20000000)  returns TRUE (0003ms, 0657ms total)
T0410 000:956 JLINK_ReadReg(R15 (PC))  returns 0x20000000 (0000ms, 0654ms total)
T0410 000:956 JLINK_ClrBPEx(BPHandle = 0x00000008)  returns 0x00 (0000ms, 0654ms total)
T0410 000:956 JLINK_ReadReg(R0)  returns 0x00000000 (0000ms, 0654ms total)
T0410 000:956 JLINK_WriteMem(0x20000164, 0x0400 Bytes, ...) - Data: FF 33 1A 40 02 83 02 8B 4F F6 FF 73 03 EA 01 23 ... -- CPU_WriteMem(1024 bytes @ 0x20000164)  returns 0x400 (0008ms, 0662ms total)
T0410 000:964 JLINK_WriteReg(R0, 0x08001000)  returns 0x00 (0000ms, 0662ms total)
T0410 000:964 JLINK_WriteReg(R1, 0x00000400)  returns 0x00 (0000ms, 0662ms total)
T0410 000:964 JLINK_WriteReg(R2, 0x20000164)  returns 0x00 (0000ms, 0662ms total)
T0410 000:964 JLINK_WriteReg(R3, 0x00000000)  returns 0x00 (0000ms, 0662ms total)
T0410 000:964 JLINK_WriteReg(R4, 0x00000000)  returns 0x00 (0000ms, 0662ms total)
T0410 000:964 JLINK_WriteReg(R5, 0x00000000)  returns 0x00 (0000ms, 0662ms total)
T0410 000:964 JLINK_WriteReg(R6, 0x00000000)  returns 0x00 (0000ms, 0662ms total)
T0410 000:964 JLINK_WriteReg(R7, 0x00000000)  returns 0x00 (0000ms, 0662ms total)
T0410 000:964 JLINK_WriteReg(R8, 0x00000000)  returns 0x00 (0000ms, 0662ms total)
T0410 000:964 JLINK_WriteReg(R9, 0x20000160)  returns 0x00 (0000ms, 0662ms total)
T0410 000:964 JLINK_WriteReg(R10, 0x00000000)  returns 0x00 (0000ms, 0662ms total)
T0410 000:964 JLINK_WriteReg(R11, 0x00000000)  returns 0x00 (0000ms, 0662ms total)
T0410 000:964 JLINK_WriteReg(R12, 0x00000000)  returns 0x00 (0000ms, 0662ms total)
T0410 000:964 JLINK_WriteReg(R13 (SP), 0x20000800)  returns 0x00 (0000ms, 0662ms total)
T0410 000:964 JLINK_WriteReg(R14, 0x20000001)  returns 0x00 (0000ms, 0662ms total)
T0410 000:964 JLINK_WriteReg(R15 (PC), 0x200000F4)  returns 0x00 (0000ms, 0662ms total)
T0410 000:964 JLINK_WriteReg(XPSR, 0x01000000)  returns 0x00 (0000ms, 0662ms total)
T0410 000:964 JLINK_WriteReg(MSP, 0x20000800)  returns 0x00 (0000ms, 0662ms total)
T0410 000:964 JLINK_WriteReg(PSP, 0x20000800)  returns 0x00 (0000ms, 0662ms total)
T0410 000:964 JLINK_WriteReg(CFBP, 0x00000000)  returns 0x00 (0000ms, 0662ms total)
T0410 000:965 JLINK_SetBPEx(Addr = 0x20000000, Type = 0xFFFFFFF2)  returns 0x00000009 (0000ms, 0663ms total)
T0410 000:965 JLINK_Go() -- CPU_ReadMem(4 bytes @ 0xE0001000) (0001ms, 0664ms total)
T0410 000:966 JLINK_IsHalted()  returns FALSE (0000ms, 0664ms total)
T0410 000:971 JLINK_IsHalted()  returns FALSE (0000ms, 0664ms total)
T0410 000:973 JLINK_IsHalted()  returns FALSE (0000ms, 0664ms total)
T0410 000:975 JLINK_IsHalted()  returns FALSE (0000ms, 0664ms total)
T0410 000:977 JLINK_IsHalted()  returns FALSE (0000ms, 0664ms total)
T0410 000:979 JLINK_IsHalted()  returns FALSE (0000ms, 0664ms total)
T0410 000:981 JLINK_IsHalted()  returns FALSE (0000ms, 0664ms total)
T0410 000:986 JLINK_IsHalted()  returns FALSE (0000ms, 0664ms total)
T0410 000:988 JLINK_IsHalted()  returns FALSE (0000ms, 0664ms total)
T0410 000:990 JLINK_IsHalted()  returns FALSE (0000ms, 0664ms total)
T0410 000:992 JLINK_IsHalted()  returns FALSE (0000ms, 0664ms total)
T0410 000:994 JLINK_IsHalted()  returns FALSE (0000ms, 0664ms total)
T0410 000:996 JLINK_IsHalted()  returns FALSE (0000ms, 0664ms total)
T0410 000:998 JLINK_IsHalted() -- CPU_ReadMem(2 bytes @ 0x20000000)  returns TRUE (0003ms, 0667ms total)
T0410 001:001 JLINK_ReadReg(R15 (PC))  returns 0x20000000 (0000ms, 0664ms total)
T0410 001:001 JLINK_ClrBPEx(BPHandle = 0x00000009)  returns 0x00 (0000ms, 0664ms total)
T0410 001:001 JLINK_ReadReg(R0)  returns 0x00000000 (0000ms, 0664ms total)
T0410 001:001 JLINK_WriteMem(0x20000164, 0x0400 Bytes, ...) - Data: 01 88 4F F6 8F 73 19 40 11 43 01 80 70 47 F0 B5 ... -- CPU_WriteMem(1024 bytes @ 0x20000164)  returns 0x400 (0009ms, 0673ms total)
T0410 001:010 JLINK_WriteReg(R0, 0x08001400)  returns 0x00 (0000ms, 0673ms total)
T0410 001:010 JLINK_WriteReg(R1, 0x00000400)  returns 0x00 (0000ms, 0673ms total)
T0410 001:010 JLINK_WriteReg(R2, 0x20000164)  returns 0x00 (0000ms, 0673ms total)
T0410 001:010 JLINK_WriteReg(R3, 0x00000000)  returns 0x00 (0000ms, 0673ms total)
T0410 001:010 JLINK_WriteReg(R4, 0x00000000)  returns 0x00 (0000ms, 0673ms total)
T0410 001:010 JLINK_WriteReg(R5, 0x00000000)  returns 0x00 (0000ms, 0673ms total)
T0410 001:010 JLINK_WriteReg(R6, 0x00000000)  returns 0x00 (0000ms, 0673ms total)
T0410 001:010 JLINK_WriteReg(R7, 0x00000000)  returns 0x00 (0000ms, 0673ms total)
T0410 001:010 JLINK_WriteReg(R8, 0x00000000)  returns 0x00 (0000ms, 0673ms total)
T0410 001:010 JLINK_WriteReg(R9, 0x20000160)  returns 0x00 (0000ms, 0673ms total)
T0410 001:010 JLINK_WriteReg(R10, 0x00000000)  returns 0x00 (0000ms, 0673ms total)
T0410 001:010 JLINK_WriteReg(R11, 0x00000000)  returns 0x00 (0000ms, 0673ms total)
T0410 001:010 JLINK_WriteReg(R12, 0x00000000)  returns 0x00 (0000ms, 0673ms total)
T0410 001:010 JLINK_WriteReg(R13 (SP), 0x20000800)  returns 0x00 (0000ms, 0673ms total)
T0410 001:010 JLINK_WriteReg(R14, 0x20000001)  returns 0x00 (0000ms, 0673ms total)
T0410 001:010 JLINK_WriteReg(R15 (PC), 0x200000F4)  returns 0x00 (0000ms, 0673ms total)
T0410 001:010 JLINK_WriteReg(XPSR, 0x01000000)  returns 0x00 (0000ms, 0673ms total)
T0410 001:010 JLINK_WriteReg(MSP, 0x20000800)  returns 0x00 (0000ms, 0673ms total)
T0410 001:010 JLINK_WriteReg(PSP, 0x20000800)  returns 0x00 (0000ms, 0673ms total)
T0410 001:010 JLINK_WriteReg(CFBP, 0x00000000)  returns 0x00 (0000ms, 0673ms total)
T0410 001:010 JLINK_SetBPEx(Addr = 0x20000000, Type = 0xFFFFFFF2)  returns 0x0000000A (0000ms, 0673ms total)
T0410 001:010 JLINK_Go() -- CPU_ReadMem(4 bytes @ 0xE0001000) (0002ms, 0675ms total)
T0410 001:012 JLINK_IsHalted()  returns FALSE (0000ms, 0675ms total)
T0410 001:017 JLINK_IsHalted()  returns FALSE (0000ms, 0675ms total)
T0410 001:019 JLINK_IsHalted()  returns FALSE (0000ms, 0675ms total)
T0410 001:021 JLINK_IsHalted()  returns FALSE (0000ms, 0675ms total)
T0410 001:023 JLINK_IsHalted()  returns FALSE (0000ms, 0675ms total)
T0410 001:025 JLINK_IsHalted()  returns FALSE (0000ms, 0675ms total)
T0410 001:027 JLINK_IsHalted()  returns FALSE (0000ms, 0675ms total)
T0410 001:029 JLINK_IsHalted()  returns FALSE (0000ms, 0675ms total)
T0410 001:033 JLINK_IsHalted()  returns FALSE (0000ms, 0675ms total)
T0410 001:035 JLINK_IsHalted()  returns FALSE (0000ms, 0675ms total)
T0410 001:037 JLINK_IsHalted()  returns FALSE (0000ms, 0675ms total)
T0410 001:039 JLINK_IsHalted()  returns FALSE (0000ms, 0675ms total)
T0410 001:041 JLINK_IsHalted()  returns FALSE (0000ms, 0675ms total)
T0410 001:045 JLINK_IsHalted() -- CPU_ReadMem(2 bytes @ 0x20000000)  returns TRUE (0003ms, 0678ms total)
T0410 001:048 JLINK_ReadReg(R15 (PC))  returns 0x20000000 (0000ms, 0675ms total)
T0410 001:048 JLINK_ClrBPEx(BPHandle = 0x0000000A)  returns 0x00 (0000ms, 0675ms total)
T0410 001:048 JLINK_ReadReg(R0)  returns 0x00000000 (0000ms, 0675ms total)
T0410 001:049 JLINK_WriteMem(0x20000164, 0x0400 Bytes, ...) - Data: 70 47 01 46 08 8F 70 47 01 46 88 8F 70 47 01 46 ... -- CPU_WriteMem(1024 bytes @ 0x20000164)  returns 0x400 (0008ms, 0683ms total)
T0410 001:057 JLINK_WriteReg(R0, 0x08001800)  returns 0x00 (0000ms, 0683ms total)
T0410 001:057 JLINK_WriteReg(R1, 0x00000400)  returns 0x00 (0000ms, 0683ms total)
T0410 001:057 JLINK_WriteReg(R2, 0x20000164)  returns 0x00 (0000ms, 0683ms total)
T0410 001:057 JLINK_WriteReg(R3, 0x00000000)  returns 0x00 (0000ms, 0683ms total)
T0410 001:057 JLINK_WriteReg(R4, 0x00000000)  returns 0x00 (0000ms, 0683ms total)
T0410 001:057 JLINK_WriteReg(R5, 0x00000000)  returns 0x00 (0000ms, 0683ms total)
T0410 001:057 JLINK_WriteReg(R6, 0x00000000)  returns 0x00 (0000ms, 0683ms total)
T0410 001:057 JLINK_WriteReg(R7, 0x00000000)  returns 0x00 (0000ms, 0683ms total)
T0410 001:057 JLINK_WriteReg(R8, 0x00000000)  returns 0x00 (0000ms, 0683ms total)
T0410 001:057 JLINK_WriteReg(R9, 0x20000160)  returns 0x00 (0000ms, 0683ms total)
T0410 001:057 JLINK_WriteReg(R10, 0x00000000)  returns 0x00 (0000ms, 0683ms total)
T0410 001:057 JLINK_WriteReg(R11, 0x00000000)  returns 0x00 (0000ms, 0683ms total)
T0410 001:057 JLINK_WriteReg(R12, 0x00000000)  returns 0x00 (0000ms, 0683ms total)
T0410 001:057 JLINK_WriteReg(R13 (SP), 0x20000800)  returns 0x00 (0000ms, 0683ms total)
T0410 001:057 JLINK_WriteReg(R14, 0x20000001)  returns 0x00 (0000ms, 0683ms total)
T0410 001:057 JLINK_WriteReg(R15 (PC), 0x200000F4)  returns 0x00 (0000ms, 0683ms total)
T0410 001:057 JLINK_WriteReg(XPSR, 0x01000000)  returns 0x00 (0000ms, 0683ms total)
T0410 001:057 JLINK_WriteReg(MSP, 0x20000800)  returns 0x00 (0000ms, 0683ms total)
T0410 001:057 JLINK_WriteReg(PSP, 0x20000800)  returns 0x00 (0000ms, 0683ms total)
T0410 001:057 JLINK_WriteReg(CFBP, 0x00000000)  returns 0x00 (0000ms, 0683ms total)
T0410 001:057 JLINK_SetBPEx(Addr = 0x20000000, Type = 0xFFFFFFF2)  returns 0x0000000B (0000ms, 0683ms total)
T0410 001:057 JLINK_Go() -- CPU_ReadMem(4 bytes @ 0xE0001000) (0002ms, 0685ms total)
T0410 001:059 JLINK_IsHalted()  returns FALSE (0000ms, 0685ms total)
T0410 001:060 JLINK_IsHalted()  returns FALSE (0000ms, 0685ms total)
T0410 001:062 JLINK_IsHalted()  returns FALSE (0000ms, 0685ms total)
T0410 001:066 JLINK_IsHalted()  returns FALSE (0000ms, 0685ms total)
T0410 001:068 JLINK_IsHalted()  returns FALSE (0000ms, 0685ms total)
T0410 001:070 JLINK_IsHalted()  returns FALSE (0000ms, 0685ms total)
T0410 001:072 JLINK_IsHalted()  returns FALSE (0000ms, 0685ms total)
T0410 001:074 JLINK_IsHalted()  returns FALSE (0000ms, 0685ms total)
T0410 001:078 JLINK_IsHalted()  returns FALSE (0000ms, 0685ms total)
T0410 001:080 JLINK_IsHalted()  returns FALSE (0000ms, 0685ms total)
T0410 001:082 JLINK_IsHalted()  returns FALSE (0000ms, 0685ms total)
T0410 001:084 JLINK_IsHalted()  returns FALSE (0000ms, 0685ms total)
T0410 001:086 JLINK_IsHalted()  returns FALSE (0000ms, 0685ms total)
T0410 001:088 JLINK_IsHalted()  returns FALSE (0000ms, 0685ms total)
T0410 001:094 JLINK_IsHalted() -- CPU_ReadMem(2 bytes @ 0x20000000)  returns TRUE (0003ms, 0688ms total)
T0410 001:097 JLINK_ReadReg(R15 (PC))  returns 0x20000000 (0000ms, 0685ms total)
T0410 001:097 JLINK_ClrBPEx(BPHandle = 0x0000000B)  returns 0x00 (0000ms, 0685ms total)
T0410 001:097 JLINK_ReadReg(R0)  returns 0x00000000 (0000ms, 0685ms total)
T0410 001:098 JLINK_WriteMem(0x20000164, 0x0400 Bytes, ...) - Data: D4 0D C2 F3 16 01 C0 F3 16 00 E4 1A 41 F4 00 01 ... -- CPU_WriteMem(1024 bytes @ 0x20000164)  returns 0x400 (0007ms, 0692ms total)
T0410 001:105 JLINK_WriteReg(R0, 0x08001C00)  returns 0x00 (0000ms, 0692ms total)
T0410 001:105 JLINK_WriteReg(R1, 0x0000019C)  returns 0x00 (0000ms, 0692ms total)
T0410 001:105 JLINK_WriteReg(R2, 0x20000164)  returns 0x00 (0000ms, 0692ms total)
T0410 001:105 JLINK_WriteReg(R3, 0x00000000)  returns 0x00 (0000ms, 0692ms total)
T0410 001:105 JLINK_WriteReg(R4, 0x00000000)  returns 0x00 (0000ms, 0692ms total)
T0410 001:105 JLINK_WriteReg(R5, 0x00000000)  returns 0x00 (0000ms, 0692ms total)
T0410 001:105 JLINK_WriteReg(R6, 0x00000000)  returns 0x00 (0000ms, 0692ms total)
T0410 001:105 JLINK_WriteReg(R7, 0x00000000)  returns 0x00 (0000ms, 0692ms total)
T0410 001:105 JLINK_WriteReg(R8, 0x00000000)  returns 0x00 (0000ms, 0692ms total)
T0410 001:105 JLINK_WriteReg(R9, 0x20000160)  returns 0x00 (0000ms, 0692ms total)
T0410 001:105 JLINK_WriteReg(R10, 0x00000000)  returns 0x00 (0000ms, 0692ms total)
T0410 001:105 JLINK_WriteReg(R11, 0x00000000)  returns 0x00 (0000ms, 0692ms total)
T0410 001:105 JLINK_WriteReg(R12, 0x00000000)  returns 0x00 (0000ms, 0692ms total)
T0410 001:105 JLINK_WriteReg(R13 (SP), 0x20000800)  returns 0x00 (0000ms, 0692ms total)
T0410 001:105 JLINK_WriteReg(R14, 0x20000001)  returns 0x00 (0000ms, 0692ms total)
T0410 001:105 JLINK_WriteReg(R15 (PC), 0x200000F4)  returns 0x00 (0000ms, 0692ms total)
T0410 001:105 JLINK_WriteReg(XPSR, 0x01000000)  returns 0x00 (0000ms, 0692ms total)
T0410 001:105 JLINK_WriteReg(MSP, 0x20000800)  returns 0x00 (0000ms, 0692ms total)
T0410 001:105 JLINK_WriteReg(PSP, 0x20000800)  returns 0x00 (0000ms, 0692ms total)
T0410 001:105 JLINK_WriteReg(CFBP, 0x00000000)  returns 0x00 (0000ms, 0692ms total)
T0410 001:105 JLINK_SetBPEx(Addr = 0x20000000, Type = 0xFFFFFFF2)  returns 0x0000000C (0000ms, 0692ms total)
T0410 001:105 JLINK_Go() -- CPU_ReadMem(4 bytes @ 0xE0001000) (0002ms, 0694ms total)
T0410 001:107 JLINK_IsHalted()  returns FALSE (0000ms, 0694ms total)
T0410 001:111 JLINK_IsHalted()  returns FALSE (0000ms, 0694ms total)
T0410 001:113 JLINK_IsHalted()  returns FALSE (0000ms, 0694ms total)
T0410 001:115 JLINK_IsHalted()  returns FALSE (0000ms, 0694ms total)
T0410 001:117 JLINK_IsHalted()  returns FALSE (0000ms, 0694ms total)
T0410 001:119 JLINK_IsHalted()  returns FALSE (0000ms, 0694ms total)
T0410 001:121 JLINK_IsHalted() -- CPU_ReadMem(2 bytes @ 0x20000000)  returns TRUE (0004ms, 0698ms total)
T0410 001:125 JLINK_ReadReg(R15 (PC))  returns 0x20000000 (0000ms, 0694ms total)
T0410 001:125 JLINK_ClrBPEx(BPHandle = 0x0000000C)  returns 0x00 (0000ms, 0694ms total)
T0410 001:125 JLINK_ReadReg(R0)  returns 0x00000000 (0000ms, 0694ms total)
T0410 001:125 JLINK_WriteReg(R0, 0x00000002)  returns 0x00 (0000ms, 0694ms total)
T0410 001:125 JLINK_WriteReg(R1, 0x0000019C)  returns 0x00 (0000ms, 0694ms total)
T0410 001:125 JLINK_WriteReg(R2, 0x20000164)  returns 0x00 (0000ms, 0694ms total)
T0410 001:125 JLINK_WriteReg(R3, 0x00000000)  returns 0x00 (0000ms, 0694ms total)
T0410 001:125 JLINK_WriteReg(R4, 0x00000000)  returns 0x00 (0000ms, 0694ms total)
T0410 001:125 JLINK_WriteReg(R5, 0x00000000)  returns 0x00 (0000ms, 0694ms total)
T0410 001:125 JLINK_WriteReg(R6, 0x00000000)  returns 0x00 (0000ms, 0694ms total)
T0410 001:125 JLINK_WriteReg(R7, 0x00000000)  returns 0x00 (0000ms, 0694ms total)
T0410 001:125 JLINK_WriteReg(R8, 0x00000000)  returns 0x00 (0000ms, 0694ms total)
T0410 001:125 JLINK_WriteReg(R9, 0x20000160)  returns 0x00 (0000ms, 0694ms total)
T0410 001:125 JLINK_WriteReg(R10, 0x00000000)  returns 0x00 (0000ms, 0694ms total)
T0410 001:125 JLINK_WriteReg(R11, 0x00000000)  returns 0x00 (0000ms, 0694ms total)
T0410 001:125 JLINK_WriteReg(R12, 0x00000000)  returns 0x00 (0000ms, 0694ms total)
T0410 001:125 JLINK_WriteReg(R13 (SP), 0x20000800)  returns 0x00 (0000ms, 0694ms total)
T0410 001:125 JLINK_WriteReg(R14, 0x20000001)  returns 0x00 (0000ms, 0694ms total)
T0410 001:125 JLINK_WriteReg(R15 (PC), 0x2000006A)  returns 0x00 (0000ms, 0694ms total)
T0410 001:125 JLINK_WriteReg(XPSR, 0x01000000)  returns 0x00 (0000ms, 0694ms total)
T0410 001:125 JLINK_WriteReg(MSP, 0x20000800)  returns 0x00 (0000ms, 0694ms total)
T0410 001:125 JLINK_WriteReg(PSP, 0x20000800)  returns 0x00 (0000ms, 0694ms total)
T0410 001:125 JLINK_WriteReg(CFBP, 0x00000000)  returns 0x00 (0000ms, 0694ms total)
T0410 001:125 JLINK_SetBPEx(Addr = 0x20000000, Type = 0xFFFFFFF2)  returns 0x0000000D (0000ms, 0694ms total)
T0410 001:125 JLINK_Go() -- CPU_ReadMem(4 bytes @ 0xE0001000) (0001ms, 0695ms total)
T0410 001:126 JLINK_IsHalted() -- CPU_ReadMem(2 bytes @ 0x20000000)  returns TRUE (0004ms, 0699ms total)
T0410 001:130 JLINK_ReadReg(R15 (PC))  returns 0x20000000 (0000ms, 0695ms total)
T0410 001:130 JLINK_ClrBPEx(BPHandle = 0x0000000D)  returns 0x00 (0000ms, 0695ms total)
T0410 001:130 JLINK_ReadReg(R0)  returns 0x00000000 (0000ms, 0695ms total)
T0410 001:183 JLINK_WriteMem(0x20000000, 0x0164 Bytes, ...) - Data: 00 BE 0A E0 0D 78 2D 06 68 40 08 24 40 00 00 D3 ... -- CPU_WriteMem(356 bytes @ 0x20000000)  returns 0x164 (0003ms, 0698ms total)
T0410 001:186 JLINK_WriteReg(R0, 0x08000000)  returns 0x00 (0000ms, 0698ms total)
T0410 001:186 JLINK_WriteReg(R1, 0x007A1200)  returns 0x00 (0000ms, 0698ms total)
T0410 001:186 JLINK_WriteReg(R2, 0x00000003)  returns 0x00 (0000ms, 0698ms total)
T0410 001:186 JLINK_WriteReg(R3, 0x00000000)  returns 0x00 (0000ms, 0698ms total)
T0410 001:186 JLINK_WriteReg(R4, 0x00000000)  returns 0x00 (0000ms, 0698ms total)
T0410 001:186 JLINK_WriteReg(R5, 0x00000000)  returns 0x00 (0000ms, 0698ms total)
T0410 001:186 JLINK_WriteReg(R6, 0x00000000)  returns 0x00 (0001ms, 0699ms total)
T0410 001:187 JLINK_WriteReg(R7, 0x00000000)  returns 0x00 (0000ms, 0699ms total)
T0410 001:187 JLINK_WriteReg(R8, 0x00000000)  returns 0x00 (0000ms, 0699ms total)
T0410 001:187 JLINK_WriteReg(R9, 0x20000160)  returns 0x00 (0000ms, 0699ms total)
T0410 001:187 JLINK_WriteReg(R10, 0x00000000)  returns 0x00 (0000ms, 0699ms total)
T0410 001:187 JLINK_WriteReg(R11, 0x00000000)  returns 0x00 (0000ms, 0699ms total)
T0410 001:187 JLINK_WriteReg(R12, 0x00000000)  returns 0x00 (0000ms, 0699ms total)
T0410 001:187 JLINK_WriteReg(R13 (SP), 0x20000800)  returns 0x00 (0000ms, 0699ms total)
T0410 001:187 JLINK_WriteReg(R14, 0x20000001)  returns 0x00 (0000ms, 0699ms total)
T0410 001:187 JLINK_WriteReg(R15 (PC), 0x20000038)  returns 0x00 (0000ms, 0699ms total)
T0410 001:187 JLINK_WriteReg(XPSR, 0x01000000)  returns 0x00 (0000ms, 0699ms total)
T0410 001:187 JLINK_WriteReg(MSP, 0x20000800)  returns 0x00 (0000ms, 0699ms total)
T0410 001:187 JLINK_WriteReg(PSP, 0x20000800)  returns 0x00 (0000ms, 0699ms total)
T0410 001:187 JLINK_WriteReg(CFBP, 0x00000000)  returns 0x00 (0000ms, 0699ms total)
T0410 001:187 JLINK_SetBPEx(Addr = 0x20000000, Type = 0xFFFFFFF2) -- CPU_ReadMem(2 bytes @ 0x20000000)  returns 0x0000000E (0000ms, 0699ms total)
T0410 001:187 JLINK_Go() -- CPU_WriteMem(2 bytes @ 0x20000000) -- CPU_ReadMem(4 bytes @ 0xE0001000) (0002ms, 0701ms total)
T0410 001:189 JLINK_IsHalted() -- CPU_ReadMem(2 bytes @ 0x20000000)  returns TRUE (0003ms, 0704ms total)
T0410 001:192 JLINK_ReadReg(R15 (PC))  returns 0x20000000 (0000ms, 0701ms total)
T0410 001:192 JLINK_ClrBPEx(BPHandle = 0x0000000E)  returns 0x00 (0000ms, 0701ms total)
T0410 001:192 JLINK_ReadReg(R0)  returns 0x00000000 (0000ms, 0701ms total)
T0410 001:192 JLINK_WriteReg(R0, 0xFFFFFFFF)  returns 0x00 (0000ms, 0701ms total)
T0410 001:192 JLINK_WriteReg(R1, 0x08000000)  returns 0x00 (0000ms, 0701ms total)
T0410 001:192 JLINK_WriteReg(R2, 0x00001D9C)  returns 0x00 (0000ms, 0701ms total)
T0410 001:192 JLINK_WriteReg(R3, 0x04C11DB7)  returns 0x00 (0000ms, 0701ms total)
T0410 001:192 JLINK_WriteReg(R4, 0x00000000)  returns 0x00 (0000ms, 0701ms total)
T0410 001:192 JLINK_WriteReg(R5, 0x00000000)  returns 0x00 (0000ms, 0701ms total)
T0410 001:192 JLINK_WriteReg(R6, 0x00000000)  returns 0x00 (0000ms, 0701ms total)
T0410 001:192 JLINK_WriteReg(R7, 0x00000000)  returns 0x00 (0000ms, 0701ms total)
T0410 001:192 JLINK_WriteReg(R8, 0x00000000)  returns 0x00 (0000ms, 0701ms total)
T0410 001:192 JLINK_WriteReg(R9, 0x20000160)  returns 0x00 (0000ms, 0701ms total)
T0410 001:192 JLINK_WriteReg(R10, 0x00000000)  returns 0x00 (0000ms, 0701ms total)
T0410 001:192 JLINK_WriteReg(R11, 0x00000000)  returns 0x00 (0000ms, 0701ms total)
T0410 001:192 JLINK_WriteReg(R12, 0x00000000)  returns 0x00 (0000ms, 0701ms total)
T0410 001:192 JLINK_WriteReg(R13 (SP), 0x20000800)  returns 0x00 (0000ms, 0701ms total)
